
**** 11/20/22 23:00:07 ******* PSpice Lite (March 2016) ******* ID# 10813 ****

 ** Profile: "SCHEMATIC1-temp"  [ D:\Proiect 1\Preamplificator_Radu\Schema\filtru_N_2-PSpiceFiles\SCHEMATIC1\temp.sim ] 


 ****     CIRCUIT DESCRIPTION


******************************************************************************




** Creating circuit file "temp.cir" 
** WARNING: THIS AUTOMATICALLY GENERATED FILE MAY BE OVERWRITTEN BY SUBSEQUENT SIMULATIONS

*Libraries: 
* Profile Libraries :
* Local Libraries :
.LIB "../../../lib_modelepspice_anexa_1_a/modele_a1_lib/mmbfj309lt1g.lib" 
.LIB "../../../lib_modelepspice_anexa_1_a/modele_a1_lib/mmbfj177lt1g.lib" 
.LIB "../../../lib_modelepspice_anexa_1_a/modele_a1_lib/mjd32cg.lib" 
.LIB "../../../lib_modelepspice_anexa_1_a/modele_a1_lib/mjd31cg.lib" 
.LIB "../../../lib_modelepspice_anexa_1_a/modele_a1_lib/irfr120npbf.lib" 
.LIB "../../../lib_modelepspice_anexa_1_a/modele_a1_lib/bzx84c10.lib" 
.LIB "../../../lib_modelepspice_anexa_1_a/modele_a1_lib/bzx84c8v2.lib" 
.LIB "../../../lib_modelepspice_anexa_1_a/modele_a1_lib/bzx84c6v8.lib" 
.LIB "../../../lib_modelepspice_anexa_1_a/modele_a1_lib/bzx84c6v2.lib" 
.LIB "../../../lib_modelepspice_anexa_1_a/modele_a1_lib/bzx84c5v6.lib" 
.LIB "../../../lib_modelepspice_anexa_1_a/modele_a1_lib/bzx84c5v1.lib" 
.LIB "../../../lib_modelepspice_anexa_1_a/modele_a1_lib/bzx84c2v7.lib" 
.LIB "../../../lib_modelepspice_anexa_1_a/modele_a1_lib/bc856b.lib" 
.LIB "../../../lib_modelepspice_anexa_1_a/modele_a1_lib/bc846b.lib" 
.LIB "../../../lib_modelepspice_anexa_1_a/modele_a1_lib/bc817-25.lib" 
.LIB "../../../lib_modelepspice_anexa_1_a/modele_a1_lib/bc807-25.lib" 
.LIB "../../../lib_modelepspice_anexa_1_a/modele_a1_lib/1n4148.lib" 
* From [PSPICE NETLIST] section of C:\SPB_DATA\cdssetup\OrCAD_PSpice\17.2.0\PSpice.ini file:
.lib "C:\Users\radub\OneDrive\Desktop\Lib_ModelePSpice_Anexa_1\Modele_A1_lib\MMBFJ309LT1G.lib" 
.lib "C:\Users\radub\OneDrive\Desktop\Lib_ModelePSpice_Anexa_1\Modele_A1_lib\MMBFJ177LT1G.lib" 
.lib "C:\Users\radub\OneDrive\Desktop\Lib_ModelePSpice_Anexa_1\Modele_A1_lib\BC846B.lib" 
.lib "C:\Users\radub\OneDrive\Desktop\Lib_ModelePSpice_Anexa_1\Modele_A1_lib\BC817-25.lib" 
.lib "C:\Users\radub\OneDrive\Desktop\Lib_ModelePSpice_Anexa_1\Modele_A1_lib\BC807-25.lib" 
.lib "C:\Users\radub\OneDrive\Desktop\Lib_ModelePSpice_Anexa_1\Modele_A1_lib\1N4148.lib" 
.lib "nomd.lib" 

*Analysis directives: 
.AC DEC 10 10 10K
.TEMP 0 27 70
.OPTIONS ADVCONV
.PROBE64 V(alias(*)) I(alias(*)) W(alias(*)) D(alias(*)) NOISE(alias(*)) 
.INC "..\SCHEMATIC1.net" 



**** INCLUDING SCHEMATIC1.net ****
* source FILTRU_N_2
Q_Q6         N08809 N08809 N09069 QBC807-25 
Q_Q10         N09093 N08855 N09127 QBC807-25 
C_C1         N14371 N09121  470n  TC=0,0 
Q_Q7         N08855 N08805 N09069 QBC807-25 
C_C3         N09121 N09127  100p  TC=0,0 
V_V2         0 N09093 12
Q_Q5         N08805 N08809 N09069 QBC807-25 
V_V3         INTRARE 0  AC 1
+SIN 0 10m 2k 0 0 0
R_R5         N092651 N091091  15k TC=0,0 
Q_Q2         N08805 0 N09525 QBC817-25 
R_RL         0 N09381  600 TC=0,0 
R_R2         N091091 N09121  150k TC=0,0 
R_R1         N09307 INTRARE  1.5k TC=0,0 
Q_Q9         N09069 N08855 N09127 QBC817-25 
Q_Q1         N08809 N09121 N09525 QBC817-25 
V_V1         N09069 0 12
J_Q11         N09525 N09093 N10004 JMMBFJ309LT1 
R_R7         N10004 N09093  100 TC=0,0 
J_Q12         N08855 N09093 N11361 JMMBFJ309LT1 
R_R8         N11361 N09093  100 TC=0,0 
X_R9         N09307 N09307 N14371 POT PARAMS: SET=0.5 VALUE=500
R_R10         N09127 N092651  3.9k TC=0,0 
C_C4         N09121 N09127  47p  TC=0,0 
C_C5         N09121 N09127  10p  TC=0,0 
C_C6         N09127 N09381  1u  TC=0,0 
X_D1         N09069 N138640 awb1n4148 PARAMS:                
X_D2         N138640 N138950 awb1n4148 PARAMS:                
X_D3         N138950 N13921 awb1n4148 PARAMS:                
R_R12         N140301 N140300  100 TC=0,0 
R_R13         N140300 N140530  100 TC=0,0 
R_R14         N140530 0  100 TC=0,0 
R_R15         N14199 N140301  100 TC=0,0 
R_R16         N13921 N14199  100 TC=0,0 
C_C7         N14371 N09121  10n  TC=0,0 

**** RESUMING temp.cir ****
.END

**** 11/20/22 23:00:07 ******* PSpice Lite (March 2016) ******* ID# 10813 ****

 ** Profile: "SCHEMATIC1-temp"  [ D:\Proiect 1\Preamplificator_Radu\Schema\filtru_N_2-PSpiceFiles\SCHEMATIC1\temp.sim ] 


 ****     Diode MODEL PARAMETERS


******************************************************************************




               X_D1.model22    X_D2.model22    X_D3.model22    
          IS    1.000000E-09    1.000000E-09    1.000000E-09 
           N    1.55            1.55            1.55         
          BV  120             120             120            
         IBV    1               1               1            
          RS     .5              .5              .5          
          TT    5.000000E-09    5.000000E-09    5.000000E-09 
         CJO    1.850000E-12    1.850000E-12    1.850000E-12 
          VJ     .65             .65             .65         
           M     .18             .18             .18         
          EG    1.11            1.11            1.11         


**** 11/20/22 23:00:07 ******* PSpice Lite (March 2016) ******* ID# 10813 ****

 ** Profile: "SCHEMATIC1-temp"  [ D:\Proiect 1\Preamplificator_Radu\Schema\filtru_N_2-PSpiceFiles\SCHEMATIC1\temp.sim ] 


 ****     BJT MODEL PARAMETERS


******************************************************************************




               QBC817-25       QBC807-25       
               NPN             PNP             
       LEVEL    1               1            
          IS   91.980000E-15  108.000000E-15 
          BF  338.8           385.7          
          NF    1.003            .99         
         VAF  107.9            31.29         
         IKF     .4913           .3603       
         ISE  446.800000E-18   27.130000E-15 
          NE    1.65            1.4          
          BR   29.48           20.57         
          NR    1.002            .9849       
         VAR   25              11.62         
         IKR     .193            .054        
         ISC    5.109000E-15  506.200000E-15 
          NC    1.071           1.295        
         ISS    0               0            
          RB    1               1            
         RBM    1                .5          
         IRB    1.000000E+03    1.000000E-06 
          RE     .2126           .1415       
          RC     .143            .2623       
         CJE   38.250000E-12   51.140000E-12 
         VJE     .7004           .8911       
         MJE     .364            .4417       
         CJC   12.700000E-12   26.560000E-12 
         VJC     .4431           .62         
         MJC     .3983           .4836       
        XCJC     .4555           .459        
         CJS    0               0            
         VJS     .75             .75         
         MJS     .333            .333        
          FC     .905            .99         
          TF  522.900000E-12  735.900000E-12 
         XTF  219.7             1.859        
         VTF    3.502           3.813        
         ITF    7.257            .4393       
          TR   70.000000E-12   50.000000E-09 
          KF    0               0            
          AF    1               1            
          CN    2.42            2.2          
           D     .87             .52         


**** 11/20/22 23:00:07 ******* PSpice Lite (March 2016) ******* ID# 10813 ****

 ** Profile: "SCHEMATIC1-temp"  [ D:\Proiect 1\Preamplificator_Radu\Schema\filtru_N_2-PSpiceFiles\SCHEMATIC1\temp.sim ] 


 ****     Junction FET MODEL PARAMETERS


******************************************************************************




               JMMBFJ309LT1    
               NJF             
         VTO   -1.7          
        BETA    5.560100E-03 
      LAMBDA     .02184      
          IS    1.333600E-12 
          RD     .1          
          RS     .1          
         CGD    5.351520E-12 
         CGS    5.071890E-12 
          PB    2.41896      
          KF    9.999820E-21 
          AF     .200092     


**** 11/20/22 23:00:07 ******* PSpice Lite (March 2016) ******* ID# 10813 ****

 ** Profile: "SCHEMATIC1-temp"  [ D:\Proiect 1\Preamplificator_Radu\Schema\filtru_N_2-PSpiceFiles\SCHEMATIC1\temp.sim ] 


 ****     TEMPERATURE-ADJUSTED VALUES      TEMPERATURE =    0.000 DEG C


******************************************************************************




 **** DIODE MODEL PARAMETERS

                X_D1.model22   X_D2.model22   X_D3.model22  

         IS        5.397E-11      5.397E-11      5.397E-11  
         VJ        7.055E-01      7.055E-01      7.055E-01  
        CJO        1.818E-12      1.818E-12      1.818E-12  
         RS        5.000E-01      5.000E-01      5.000E-01  
        IKF        0.000E+00      0.000E+00      0.000E+00  
         BV        1.200E+02      1.200E+02      1.200E+02  


 **** JFET MODEL PARAMETERS

                JMMBFJ309LT1                                

        VTO       -1.700E+00  
       BETA        5.560E-03  
         IS        1.445E-14  
         PB        2.315E+00  
        CGS        5.153E-12  
        CGD        5.437E-12  


 **** BJT MODEL PARAMETERS

                  QBC807-25      QBC817-25                  

         BF        3.857E+02      3.388E+02  
        ISE        1.071E-15      2.878E-17  
        VJE        9.249E-01      7.513E-01  
        CJE        5.004E-11      3.709E-11  
         RE        1.415E-01      2.126E-01  
         RB        1.000E+00      1.000E+00  
         BR        2.057E+01      2.948E+01  
        ISC        1.538E-14      7.472E-17  
        VJC        6.782E-01      5.172E-01  
        CJC        2.522E-11      1.180E-11  
         RC        2.623E-01      1.430E-01  
        RBM        5.000E-01      1.000E+00  
         IS        1.170E-15      9.966E-16  
        ISS        0.000E+00      0.000E+00  
        VJS        7.965E-01      7.965E-01  
        CJS        0.000E+00      0.000E+00  
      GAMMA        1.000E-11      1.000E-11  
        RCO        0.000E+00      0.000E+00  
         VO        1.000E+01      1.000E+01  


**** 11/20/22 23:00:07 ******* PSpice Lite (March 2016) ******* ID# 10813 ****

 ** Profile: "SCHEMATIC1-temp"  [ D:\Proiect 1\Preamplificator_Radu\Schema\filtru_N_2-PSpiceFiles\SCHEMATIC1\temp.sim ] 


 ****     SMALL SIGNAL BIAS SOLUTION       TEMPERATURE =    0.000 DEG C


******************************************************************************



 NODE   VOLTAGE     NODE   VOLTAGE     NODE   VOLTAGE     NODE   VOLTAGE


(N08805)   11.3180 (N08809)   11.3290 (N08855)    2.1513 (N09069)   12.0000     

(N09093)  -12.0000 (N09121) 20.36E-06 (N09127)    1.6104 (N09307)    0.0000     

(N09381)    0.0000 (N09525)    -.6808 (N10004)  -11.3070 (N11361)  -11.2930     

(N13921)    9.8131 (N14199)    7.8505 (N14371)    0.0000 (INTRARE)    0.0000    

(N091091)    1.4302                   (N092651)    1.5732                       

(N138640)   11.2710                   (N138950)   10.5420                       

(N140300)    3.9252                   (N140301)    5.8879                       

(N140530)    1.9626                   




    VOLTAGE SOURCE CURRENTS
    NAME         CURRENT

    V_V2        -1.401E-02
    V_V3         0.000E+00
    V_V1        -3.362E-02

    TOTAL POWER DISSIPATION   5.72E-01  WATTS


**** 11/20/22 23:00:07 ******* PSpice Lite (March 2016) ******* ID# 10813 ****

 ** Profile: "SCHEMATIC1-temp"  [ D:\Proiect 1\Preamplificator_Radu\Schema\filtru_N_2-PSpiceFiles\SCHEMATIC1\temp.sim ] 


 ****     TEMPERATURE-ADJUSTED VALUES      TEMPERATURE =   27.000 DEG C


******************************************************************************




 **** DIODE MODEL PARAMETERS

                X_D1.model22   X_D2.model22   X_D3.model22  

         IS        1.000E-09      1.000E-09      1.000E-09  
         VJ        6.500E-01      6.500E-01      6.500E-01  
        CJO        1.850E-12      1.850E-12      1.850E-12  
         RS        5.000E-01      5.000E-01      5.000E-01  
        IKF        0.000E+00      0.000E+00      0.000E+00  
         BV        1.200E+02      1.200E+02      1.200E+02  


 **** JFET MODEL PARAMETERS

                JMMBFJ309LT1                                

        VTO       -1.700E+00  
       BETA        5.560E-03  
         IS        1.334E-12  
         PB        2.419E+00  
        CGS        5.072E-12  
        CGD        5.352E-12  


 **** BJT MODEL PARAMETERS

                  QBC807-25      QBC817-25                  

         BF        3.857E+02      3.388E+02  
        ISE        2.713E-14      4.468E-16  
        VJE        8.911E-01      7.004E-01  
        CJE        5.114E-11      3.825E-11  
         RE        1.415E-01      2.126E-01  
         RB        1.000E+00      1.000E+00  
         BR        2.057E+01      2.948E+01  
        ISC        5.062E-13      5.109E-15  
        VJC        6.200E-01      4.431E-01  
        CJC        2.656E-11      1.270E-11  
         RC        2.623E-01      1.430E-01  
        RBM        5.000E-01      1.000E+00  
         IS        1.080E-13      9.198E-14  
        ISS        0.000E+00      0.000E+00  
        VJS        7.500E-01      7.500E-01  
        CJS        0.000E+00      0.000E+00  
      GAMMA        1.000E-11      1.000E-11  
        RCO        0.000E+00      0.000E+00  
         VO        1.000E+01      1.000E+01  


**** 11/20/22 23:00:07 ******* PSpice Lite (March 2016) ******* ID# 10813 ****

 ** Profile: "SCHEMATIC1-temp"  [ D:\Proiect 1\Preamplificator_Radu\Schema\filtru_N_2-PSpiceFiles\SCHEMATIC1\temp.sim ] 


 ****     SMALL SIGNAL BIAS SOLUTION       TEMPERATURE =   27.000 DEG C


******************************************************************************



 NODE   VOLTAGE     NODE   VOLTAGE     NODE   VOLTAGE     NODE   VOLTAGE


(N08805)   11.3660 (N08809)   11.3790 (N08855)    2.0841 (N09069)   12.0000     

(N09093)  -12.0000 (N09121) 21.55E-06 (N09127)    1.6073 (N09307)    0.0000     

(N09381)    0.0000 (N09525)    -.6306 (N10004)  -11.3060 (N11361)  -11.2930     

(N13921)    9.9489 (N14199)    7.9591 (N14371)    0.0000 (INTRARE)    0.0000    

(N091091)    1.4274                   (N092651)    1.5702                       

(N138640)   11.3160                   (N138950)   10.6330                       

(N140300)    3.9796                   (N140301)    5.9693                       

(N140530)    1.9898                   




    VOLTAGE SOURCE CURRENTS
    NAME         CURRENT

    V_V2        -1.401E-02
    V_V3         0.000E+00
    V_V1        -3.390E-02

    TOTAL POWER DISSIPATION   5.75E-01  WATTS


**** 11/20/22 23:00:07 ******* PSpice Lite (March 2016) ******* ID# 10813 ****

 ** Profile: "SCHEMATIC1-temp"  [ D:\Proiect 1\Preamplificator_Radu\Schema\filtru_N_2-PSpiceFiles\SCHEMATIC1\temp.sim ] 


 ****     TEMPERATURE-ADJUSTED VALUES      TEMPERATURE =   70.000 DEG C


******************************************************************************




 **** DIODE MODEL PARAMETERS

                X_D1.model22   X_D2.model22   X_D3.model22  

         IS        4.163E-08      4.163E-08      4.163E-08  
         VJ        5.594E-01      5.594E-01      5.594E-01  
        CJO        1.902E-12      1.902E-12      1.902E-12  
         RS        5.000E-01      5.000E-01      5.000E-01  
        IKF        0.000E+00      0.000E+00      0.000E+00  
         BV        1.200E+02      1.200E+02      1.200E+02  


 **** JFET MODEL PARAMETERS

                JMMBFJ309LT1                                

        VTO       -1.700E+00  
       BETA        5.560E-03  
         IS        4.316E-10  
         PB        2.582E+00  
        CGS        4.945E-12  
        CGD        5.217E-12  


 **** BJT MODEL PARAMETERS

                  QBC807-25      QBC817-25                  

         BF        3.857E+02      3.388E+02  
        ISE        1.684E-12      1.484E-14  
        VJE        8.351E-01      6.171E-01  
        CJE        5.295E-11      4.015E-11  
         RE        1.415E-01      2.126E-01  
         RB        1.000E+00      1.000E+00  
         BR        2.057E+01      2.948E+01  
        ISC        4.391E-11      1.127E-12  
        VJC        5.251E-01      3.229E-01  
        CJC        2.875E-11      1.416E-11  
         RC        2.623E-01      1.430E-01  
        RBM        5.000E-01      1.000E+00  
         IS        3.495E-11      2.976E-11  
        ISS        0.000E+00      0.000E+00  
        VJS        6.738E-01      6.738E-01  
        CJS        0.000E+00      0.000E+00  
      GAMMA        1.000E-11      1.000E-11  
        RCO        0.000E+00      0.000E+00  
         VO        1.000E+01      1.000E+01  


**** 11/20/22 23:00:07 ******* PSpice Lite (March 2016) ******* ID# 10813 ****

 ** Profile: "SCHEMATIC1-temp"  [ D:\Proiect 1\Preamplificator_Radu\Schema\filtru_N_2-PSpiceFiles\SCHEMATIC1\temp.sim ] 


 ****     SMALL SIGNAL BIAS SOLUTION       TEMPERATURE =   70.000 DEG C


******************************************************************************



 NODE   VOLTAGE     NODE   VOLTAGE     NODE   VOLTAGE     NODE   VOLTAGE


(N08805)   11.4450 (N08809)   11.4590 (N08855)    1.9758 (N09069)   12.0000     

(N09093)  -12.0000 (N09121) 23.18E-06 (N09127)    1.6023 (N09307)    0.0000     

(N09381)    0.0000 (N09525)    -.5493 (N10004)  -11.3060 (N11361)  -11.2930     

(N13921)   10.1680 (N14199)    8.1347 (N14371)    0.0000 (INTRARE)    0.0000    

(N091091)    1.4230                   (N092651)    1.5653                       

(N138640)   11.3890                   (N138950)   10.7790                       

(N140300)    4.0673                   (N140301)    6.1010                       

(N140530)    2.0337                   




    VOLTAGE SOURCE CURRENTS
    NAME         CURRENT

    V_V2        -1.401E-02
    V_V3         0.000E+00
    V_V1        -3.433E-02

    TOTAL POWER DISSIPATION   5.80E-01  WATTS



          JOB CONCLUDED

**** 11/20/22 23:00:07 ******* PSpice Lite (March 2016) ******* ID# 10813 ****

 ** Profile: "SCHEMATIC1-temp"  [ D:\Proiect 1\Preamplificator_Radu\Schema\filtru_N_2-PSpiceFiles\SCHEMATIC1\temp.sim ] 


 ****     JOB STATISTICS SUMMARY


******************************************************************************



  Total job time (using Solver 1)   =         .08
